Freq.	V(y)/V(x)
Step Information: Rload=8  (Step: 1/2)
1.00000000000000e-01	(1.70172760197487e+02dB,5.65504813022065e+00°)
1.00770481413610e-01	(1.70172107303984e+02dB,5.69833315572638e+00°)
1.01546899243308e-01	(1.70171444420884e+02dB,5.74194508007291e+00°)
1.02329299228075e-01	(1.70170771396741e+02dB,5.78588627098297e+00°)
1.03117727459306e-01	(1.70170089315355e+02dB,5.83015994329850e+00°)
1.03912230383517e-01	(1.70169395545615e+02dB,5.87476683297414e+00°)
1.04712854805090e-01	(1.70168691785455e+02dB,5.91971060188720e+00°)
1.05519647889024e-01	(1.70167977255517e+02dB,5.96499325961645e+00°)
1.06332657163716e-01	(1.70167250556137e+02dB,6.01061638837132e+00°)
1.07151930523761e-01	(1.70166513995446e+02dB,6.05658415599204e+00°)
1.07977516232771e-01	(1.70165765550592e+02dB,6.10289774533498e+00°)
1.08809462926223e-01	(1.70165006905608e+02dB,6.14956095049804e+00°)
1.09647819614319e-01	(1.70164235415371e+02dB,6.19657452239405e+00°)
1.10492635684876e-01	(1.70163451522945e+02dB,6.24394140309142e+00°)
1.11343960906236e-01	(1.70162656903726e+02dB,6.29166546179718e+00°)
1.12201845430196e-01	(1.70161850141302e+02dB,6.33974835992343e+00°)
1.13066339794964e-01	(1.70161031052408e+02dB,6.38819265927390e+00°)
1.13937494928134e-01	(1.70160198216430e+02dB,6.43700001749248e+00°)
1.14815362149688e-01	(1.70159354531451e+02dB,6.48617532030616e+00°)
1.15699993175021e-01	(1.70158496719476e+02dB,6.53571887443416e+00°)
1.16591440117983e-01	(1.70157626437876e+02dB,6.58563469048985e+00°)
1.17489755493953e-01	(1.70156742872324e+02dB,6.63592494310582e+00°)
1.18394992222930e-01	(1.70155845822816e+02dB,6.68659228502534e+00°)
1.19307203632654e-01	(1.70154934469845e+02dB,6.73763890347308e+00°)
1.20226443461741e-01	(1.70154009224363e+02dB,6.78906795464566e+00°)
1.21152765862859e-01	(1.70153069261154e+02dB,6.84088164918342e+00°)
1.22086225405907e-01	(1.70152115601049e+02dB,6.89308367204923e+00°)
1.23026877081238e-01	(1.70151148644649e+02dB,6.94567725802324e+00°)
1.23974776302895e-01	(1.70150165709332e+02dB,6.99866317779456e+00°)
1.24929978911874e-01	(1.70149167806131e+02dB,7.05204517255016e+00°)
1.25892541179417e-01	(1.70148154094857e+02dB,7.10582551066039e+00°)
1.26862519810326e-01	(1.70147128040985e+02dB,7.16001002977840e+00°)
1.27839971946303e-01	(1.70146083873238e+02dB,7.21459696641922e+00°)
1.28824955169314e-01	(1.70145022589268e+02dB,7.26959012970787e+00°)
1.29817527504985e-01	(1.70143947027252e+02dB,7.32499493824071e+00°)
1.30817747426020e-01	(1.70142853870147e+02dB,7.38081164940228e+00°)
1.31825673855641e-01	(1.70141744718237e+02dB,7.43704469198518e+00°)
1.32841366171065e-01	(1.70140619322725e+02dB,7.49369695693523e+00°)
1.33864884207000e-01	(1.70139476202444e+02dB,7.55077027553937e+00°)
1.34896288259166e-01	(1.70138315716559e+02dB,7.60826808687860e+00°)
1.35935639087853e-01	(1.70137138833985e+02dB,7.66619440536055e+00°)
1.36982997921497e-01	(1.70135942221326e+02dB,7.72454944671894e+00°)
1.38038426460289e-01	(1.70134729295724e+02dB,7.78333944849996e+00°)
1.39101986879806e-01	(1.70133495490262e+02dB,7.84256351318674e+00°)
1.40173741834677e-01	(1.70132244826227e+02dB,7.90222850574775e+00°)
1.41253754462276e-01	(1.70130973344577e+02dB,7.96233406477412e+00°)
1.42342088386435e-01	(1.70129685055678e+02dB,8.02288715532245e+00°)
1.43438807721197e-01	(1.70128376606899e+02dB,8.08388798227278e+00°)
1.44543977074593e-01	(1.70127047708385e+02dB,8.14533957322794e+00°)
1.45657661552446e-01	(1.70125698678613e+02dB,8.20724555273327e+00°)
1.46779926762207e-01	(1.70124329218854e+02dB,8.26960898990490e+00°)
1.47910838816821e-01	(1.70122939026170e+02dB,8.33243296671359e+00°)
1.49050464338620e-01	(1.70121528405160e+02dB,8.39572117622437e+00°)
1.50198870463249e-01	(1.70120094597014e+02dB,8.45947434086084e+00°)
1.51356124843621e-01	(1.70118640956273e+02dB,8.52369917292190e+00°)
1.52522295653902e-01	(1.70117165326906e+02dB,8.58839702294252e+00°)
1.53697451593528e-01	(1.70115666772907e+02dB,8.65357042874488e+00°)
1.54881661891249e-01	(1.70114144354561e+02dB,8.71922192345478e+00°)
1.56074996309212e-01	(1.70112600792010e+02dB,8.78535777073733e+00°)
1.57277525147067e-01	(1.70111034523693e+02dB,8.85197994790072e+00°)
1.58489319246112e-01	(1.70109442154544e+02dB,8.91908851452251e+00°)
1.59710449993461e-01	(1.70107826388533e+02dB,8.98668981370670e+00°)
1.60940989326254e-01	(1.70106186262037e+02dB,9.05478644771788e+00°)
1.62181009735894e-01	(1.70104523245300e+02dB,9.12338359531831e+00°)
1.63430584272314e-01	(1.70102833926894e+02dB,9.19248130129530e+00°)
1.64689786548288e-01	(1.70101119158026e+02dB,9.26208411418924e+00°)
1.65958690743757e-01	(1.70099378565399e+02dB,9.33219531252571e+00°)
1.67237371610209e-01	(1.70097610553565e+02dB,9.40281685682638e+00°)
1.68525904475076e-01	(1.70095818389822e+02dB,9.47395603781178e+00°)
1.69824365246175e-01	(1.70093997426221e+02dB,9.54561150558610e+00°)
1.71132830416179e-01	(1.70092149701681e+02dB,9.61778925811865e+00°)
1.72451377067121e-01	(1.70090273600735e+02dB,9.69049127745079e+00°)
1.73780082874938e-01	(1.70088370540598e+02dB,9.76372296228340e+00°)
1.75119026114047e-01	(1.70086436467265e+02dB,9.83748353467267e+00°)
1.76468285661951e-01	(1.70084475820967e+02dB,9.91178189498429e+00°)
1.77827941003893e-01	(1.70082484538058e+02dB,9.98661725505600e+00°)
1.79198072237534e-01	(1.70080464616838e+02dB,1.00619958099285e+01°)
1.80578760077673e-01	(1.70078414410410e+02dB,1.01379195571878e+01°)
1.81970085860999e-01	(1.70076332268261e+02dB,1.02143904635924e+01°)
1.83372131550889e-01	(1.70074218351993e+02dB,1.02914126381289e+01°)
1.84784979742230e-01	(1.70072074025935e+02dB,1.03689916790943e+01°)
1.86208713666288e-01	(1.70069897621576e+02dB,1.04471295794845e+01°)
1.87643417195610e-01	(1.70067688675332e+02dB,1.05258297794369e+01°)
1.89089174848965e-01	(1.70065446113394e+02dB,1.06050949813095e+01°)
1.90546071796326e-01	(1.70063169460650e+02dB,1.06849286245389e+01°)
1.92014193863881e-01	(1.70060861252526e+02dB,1.07653379397983e+01°)
1.93493627539096e-01	(1.70058516171941e+02dB,1.08463203644608e+01°)
1.94984459975806e-01	(1.70056137946550e+02dB,1.09278846829745e+01°)
1.96486778999348e-01	(1.70053722457235e+02dB,1.10100297880492e+01°)
1.98000673111740e-01	(1.70051271606754e+02dB,1.10927622325093e+01°)
1.99526231496889e-01	(1.70048784878926e+02dB,1.11760855273115e+01°)
2.01063544025850e-01	(1.70046260548120e+02dB,1.12600016079333e+01°)
2.02612701262116e-01	(1.70043699889642e+02dB,1.13445163469852e+01°)
2.04173794466954e-01	(1.70041099963184e+02dB,1.14296300814862e+01°)
2.05746915604785e-01	(1.70038461428862e+02dB,1.15153479019927e+01°)
2.07332157348597e-01	(1.70035783137133e+02dB,1.16016725111712e+01°)
2.08929613085405e-01	(1.70033066330963e+02dB,1.16886098638576e+01°)
2.10539376921756e-01	(1.70030308646764e+02dB,1.17761610419437e+01°)
2.12161543689270e-01	(1.70027511310776e+02dB,1.18643320398225e+01°)
2.13796208950225e-01	(1.70024670750337e+02dB,1.19531222379836e+01°)
2.15443469003190e-01	(1.70021788774981e+02dB,1.20425384745404e+01°)
2.17103420888697e-01	(1.70018863595073e+02dB,1.21325825966543e+01°)
2.18776162394957e-01	(1.70015896402425e+02dB,1.22232606724842e+01°)
2.20461792063620e-01	(1.70012884199153e+02dB,1.23145728241238e+01°)
2.22160409195583e-01	(1.70009827564250e+02dB,1.24065242705183e+01°)
2.23872113856835e-01	(1.70006727661548e+02dB,1.24991211478453e+01°)
2.25597006884359e-01	(1.70003580878173e+02dB,1.25923626423744e+01°)
2.27335189892065e-01	(1.70000387767175e+02dB,1.26862540027353e+01°)
2.29086765276779e-01	(1.69997146491878e+02dB,1.27807969626035e+01°)
2.30851836224278e-01	(1.69993859370098e+02dB,1.28759994749984e+01°)
2.32630506715364e-01	(1.69990523359432e+02dB,1.29718614918702e+01°)
2.34422881531994e-01	(1.69987137789451e+02dB,1.30683864949001e+01°)
2.36229066263448e-01	(1.69983702574306e+02dB,1.31655788740516e+01°)
2.38049167312553e-01	(1.69980218210222e+02dB,1.32634439599223e+01°)
2.39883291901951e-01	(1.69976681630516e+02dB,1.33619815613441e+01°)
2.41731548080412e-01	(1.69973093906913e+02dB,1.34611979141786e+01°)
2.43594044729204e-01	(1.69969454324358e+02dB,1.35610965019919e+01°)
2.45470891568505e-01	(1.69965758617360e+02dB,1.36616751203921e+01°)
2.47362199163864e-01	(1.69962012550517e+02dB,1.37629476007180e+01°)
2.49268078932720e-01	(1.69958210071691e+02dB,1.38649088575227e+01°)
2.51188643150960e-01	(1.69954352792319e+02dB,1.39675661207480e+01°)
2.53124004959538e-01	(1.69950438777380e+02dB,1.40709208750186e+01°)
2.55074278371138e-01	(1.69946467850281e+02dB,1.41749774776099e+01°)
2.57039578276888e-01	(1.69942439236228e+02dB,1.42797393119811e+01°)
2.59020020453134e-01	(1.69938352737987e+02dB,1.43852107404391e+01°)
2.61015721568256e-01	(1.69934205802953e+02dB,1.44913921385205e+01°)
2.63026799189540e-01	(1.69929999974396e+02dB,1.45982908270438e+01°)
2.65053371790110e-01	(1.69925732683057e+02dB,1.47059071292341e+01°)
2.67095558755901e-01	(1.69921403694641e+02dB,1.48142453454117e+01°)
2.69153480392694e-01	(1.69917012179487e+02dB,1.49233087591506e+01°)
2.71227257933205e-01	(1.69912557298651e+02dB,1.50331006329196e+01°)
2.73317013544226e-01	(1.69908038786286e+02dB,1.51436252490153e+01°)
2.75422870333819e-01	(1.69903453455168e+02dB,1.52548816610599e+01°)
2.77544952358573e-01	(1.69898803349999e+02dB,1.53668782730951e+01°)
2.79683384630910e-01	(1.69894087009544e+02dB,1.54796172411694e+01°)
2.81838293126448e-01	(1.69889301225585e+02dB,1.55930974618824e+01°)
2.84009804791424e-01	(1.69884448584012e+02dB,1.57073284459105e+01°)
2.86198047550173e-01	(1.69879525858553e+02dB,1.58223090245033e+01°)
2.88403150312663e-01	(1.69874532135761e+02dB,1.59380422464464e+01°)
2.90625242982089e-01	(1.69869467069967e+02dB,1.60545322251106e+01°)
2.92864456462526e-01	(1.69864331456343e+02dB,1.61717852800856e+01°)
2.95120922666641e-01	(1.69859120312087e+02dB,1.62897966815662e+01°)
2.97394774523463e-01	(1.69853836718079e+02dB,1.64085771116975e+01°)
2.99686145986215e-01	(1.69848476256042e+02dB,1.65281228008482e+01°)
3.01995172040205e-01	(1.69843040827392e+02dB,1.66484422227126e+01°)
3.04321988710775e-01	(1.69837526577981e+02dB,1.67695325653019e+01°)
3.06666733071321e-01	(1.69831935954537e+02dB,1.68914034502558e+01°)
3.09029543251362e-01	(1.69826266231375e+02dB,1.70140542476922e+01°)
3.11410558444679e-01	(1.69820514681600e+02dB,1.71374842033034e+01°)
3.13809918917516e-01	(1.69814683708694e+02dB,1.72617029505229e+01°)
3.16227766016841e-01	(1.69808769424848e+02dB,1.73867073207855e+01°)
3.18664242178676e-01	(1.69802772496192e+02dB,1.75125034241963e+01°)
3.21119490936486e-01	(1.69796691298374e+02dB,1.76390926504841e+01°)
3.23593656929632e-01	(1.69790523633197e+02dB,1.77664751155536e+01°)
3.26086885911897e-01	(1.69784271261935e+02dB,1.78946592708717e+01°)
3.28599324760069e-01	(1.69777930831565e+02dB,1.80236427478217e+01°)
3.31131121482595e-01	(1.69771501814661e+02dB,1.81534291126837e+01°)
3.33682425228298e-01	(1.69764982543072e+02dB,1.82840194555658e+01°)
3.36253386295166e-01	(1.69758372467723e+02dB,1.84154172541468e+01°)
3.38844156139206e-01	(1.69751670464211e+02dB,1.85476247189950e+01°)
3.41454887383364e-01	(1.69744875959115e+02dB,1.86806452582959e+01°)
3.44085733826517e-01	(1.69737986124940e+02dB,1.88144772175637e+01°)
3.46736850452536e-01	(1.69731002049739e+02dB,1.89491276588114e+01°)
3.49408393439410e-01	(1.69723920888819e+02dB,1.90845947876802e+01°)
3.52100520168456e-01	(1.69716742028312e+02dB,1.92208817829185e+01°)
3.54813389233580e-01	(1.69709464284193e+02dB,1.93579905052550e+01°)
3.57547160450625e-01	(1.69702086462814e+02dB,1.94959227484298e+01°)
3.60301994866789e-01	(1.69694606806103e+02dB,1.96346789374995e+01°)
3.63078054770106e-01	(1.69687025211094e+02dB,1.97742633369309e+01°)
3.65875503699008e-01	(1.69679339899404e+02dB,1.99146762448371e+01°)
3.68694506451962e-01	(1.69671548535451e+02dB,2.00559165273017e+01°)
3.71535229097177e-01	(1.69663652085892e+02dB,2.01979909370648e+01°)
3.74397838982386e-01	(1.69655647644564e+02dB,2.03408968675567e+01°)
3.77282504744704e-01	(1.69647533953831e+02dB,2.04846356014309e+01°)
3.80189396320566e-01	(1.69639310842027e+02dB,2.06292110638328e+01°)
3.83118684955733e-01	(1.69630977573443e+02dB,2.07746257972899e+01°)
3.86070543215386e-01	(1.69622530126186e+02dB,2.09208740435237e+01°)
3.89045144994285e-01	(1.69613969390099e+02dB,2.10679622571325e+01°)
3.92042665527020e-01	(1.69605293512500e+02dB,2.12158899790973e+01°)
3.95063281398329e-01	(1.69596500636238e+02dB,2.13646566344480e+01°)
3.98107170553502e-01	(1.69587591064145e+02dB,2.15142671609467e+01°)
4.01174512308867e-01	(1.69578561837432e+02dB,2.16647180115968e+01°)
4.04265487362349e-01	(1.69569410541049e+02dB,2.18160068803546e+01°)
4.07380277804118e-01	(1.69560139062319e+02dB,2.19681427530642e+01°)
4.10519067127313e-01	(1.69550743887631e+02dB,2.21211203252722e+01°)
4.13682040238856e-01	(1.69541224190438e+02dB,2.22749413074379e+01°)
4.16869383470341e-01	(1.69531578597540e+02dB,2.24296058902293e+01°)
4.20081284589012e-01	(1.69521805728018e+02dB,2.25851141666264e+01°)
4.23317932808826e-01	(1.69511903661522e+02dB,2.27414646619823e+01°)
4.26579518801598e-01	(1.69501872066746e+02dB,2.28986602037334e+01°)
4.29866234708233e-01	(1.69491708478145e+02dB,2.30566976367554e+01°)
4.33178274150047e-01	(1.69481412017106e+02dB,2.32155781208593e+01°)
4.36515832240172e-01	(1.69470981793186e+02dB,2.33753027413762e+01°)
4.39879105595049e-01	(1.69460414276603e+02dB,2.35358649613223e+01°)
4.43268292346015e-01	(1.69449711193525e+02dB,2.36972731853639e+01°)
4.46683592150969e-01	(1.69438869003967e+02dB,2.38595206411477e+01°)
4.50125206206140e-01	(1.69427886790423e+02dB,2.40226079869509e+01°)
4.53593337257934e-01	(1.69416762063593e+02dB,2.41865311752157e+01°)
4.57088189614881e-01	(1.69405495452537e+02dB,2.43512952757338e+01°)
4.60609969159672e-01	(1.69394083936611e+02dB,2.45168944695085e+01°)
4.64158883361284e-01	(1.69382527087046e+02dB,2.46833305490525e+01°)
4.67735141287205e-01	(1.69370821885249e+02dB,2.48505973882887e+01°)
4.71338953615747e-01	(1.69358969431490e+02dB,2.50187012893382e+01°)
4.74970532648462e-01	(1.69346965162228e+02dB,2.51876311171266e+01°)
4.78630092322645e-01	(1.69334809138088e+02dB,2.53573897929787e+01°)
4.82317848223938e-01	(1.69322500380766e+02dB,2.55279769963261e+01°)
4.86034017599029e-01	(1.69310036887237e+02dB,2.56993890887664e+01°)
4.89778819368453e-01	(1.69297416656817e+02dB,2.58716222744360e+01°)
4.93552474139488e-01	(1.69284637691789e+02dB,2.60446725961929e+01°)
4.97355204219147e-01	(1.69271701519595e+02dB,2.62185473785193e+01°)
5.01187233627280e-01	(1.69258602606387e+02dB,2.63932310070159e+01°)
5.05048788109766e-01	(1.69245342465941e+02dB,2.65687305873668e+01°)
5.08940095151816e-01	(1.69231918086673e+02dB,2.67450383560159e+01°)
5.12861383991372e-01	(1.69218328958740e+02dB,2.69221546498768e+01°)
5.16812885632611e-01	(1.69204572577098e+02dB,2.71000730377822e+01°)
5.20794832859554e-01	(1.69190646942239e+02dB,2.72787885709058e+01°)
5.24807460249781e-01	(1.69176552521657e+02dB,2.74583045701602e+01°)
5.28851004188246e-01	(1.69162286813472e+02dB,2.76386141648349e+01°)
5.32925702881209e-01	(1.69147848306706e+02dB,2.78197136894361e+01°)
5.37031796370261e-01	(1.69133235491001e+02dB,2.80015993354821e+01°)
5.41169526546472e-01	(1.69118446371169e+02dB,2.81842654352465e+01°)
5.45339137164636e-01	(1.69103478475956e+02dB,2.83677044240324e+01°)
5.49540873857633e-01	(1.69088333208069e+02dB,2.85519223850343e+01°)
5.53774984150898e-01	(1.69073008086666e+02dB,2.87369115207115e+01°)
5.58041717477005e-01	(1.69057500646768e+02dB,2.89226638295461e+01°)
5.62341325190358e-01	(1.69041808917156e+02dB,2.91091728587375e+01°)
5.66674060582000e-01	(1.69025931887871e+02dB,2.92964354988696e+01°)
5.71040178894536e-01	(1.69009869966725e+02dB,2.94844538229991e+01°)
5.75439937337166e-01	(1.68993619290127e+02dB,2.96732139006347e+01°)
5.79873595100840e-01	(1.68977179325411e+02dB,2.98627139781660e+01°)
5.84341413373527e-01	(1.68960548593934e+02dB,3.00529486320377e+01°)
5.88843655355598e-01	(1.68943725622248e+02dB,3.02439122899623e+01°)
5.93380586275337e-01	(1.68926708478085e+02dB,3.04355974263652e+01°)
5.97952473404561e-01	(1.68909496631300e+02dB,3.06280017624256e+01°)
6.02559586074367e-01	(1.68892087699627e+02dB,3.08211156626424e+01°)
6.07202195690998e-01	(1.68874481159257e+02dB,3.10149365730353e+01°)
6.11880575751832e-01	(1.68856673735528e+02dB,3.12094508720228e+01°)
6.16595001861492e-01	(1.68838666745531e+02dB,3.14046630277639e+01°)
6.21345751748086e-01	(1.68820455574372e+02dB,3.16005535808854e+01°)
6.26133105279563e-01	(1.68802041991128e+02dB,3.17971286020152e+01°)
6.30957344480203e-01	(1.68783422774615e+02dB,3.19943738018547e+01°)
6.35818753547233e-01	(1.68764596983049e+02dB,3.21922839339143e+01°)
6.40717618867564e-01	(1.68745562339513e+02dB,3.23908480346280e+01°)
6.45654229034666e-01	(1.68726318812877e+02dB,3.25900642946626e+01°)
6.50628874865568e-01	(1.68706864592165e+02dB,3.27899233208203e+01°)
6.55641849417990e-01	(1.68687198326096e+02dB,3.29904174268404e+01°)
6.60693448007607e-01	(1.68667317799600e+02dB,3.31915350034193e+01°)
6.65783968225447e-01	(1.68647223441279e+02dB,3.33932756140292e+01°)
6.70913709955423e-01	(1.68626912190581e+02dB,3.35956235620912e+01°)
6.76082975391993e-01	(1.68606383191473e+02dB,3.37985724459180e+01°)
6.81292069057973e-01	(1.68585636882845e+02dB,3.40021214762223e+01°)
6.86541297822467e-01	(1.68564668554312e+02dB,3.42062468003446e+01°)
6.91830970918948e-01	(1.68543480384429e+02dB,3.44109550118072e+01°)
6.97161399963479e-01	(1.68522069420291e+02dB,3.46162295954299e+01°)
7.02532898973064e-01	(1.68500435285725e+02dB,3.48220654122807e+01°)
7.07945784384150e-01	(1.68478575089357e+02dB,3.50284455931416e+01°)
7.13400375071269e-01	(1.68456488909850e+02dB,3.52353666529499e+01°)
7.18896992365820e-01	(1.68434176402616e+02dB,3.54428230843859e+01°)
7.24435960075003e-01	(1.68411635160154e+02dB,3.56507995155884e+01°)
7.30017604500891e-01	(1.68388864050800e+02dB,3.58592862558233e+01°)
7.35642254459654e-01	(1.68365862369867e+02dB,3.60682754471046e+01°)
7.41310241300931e-01	(1.68342628610702e+02dB,3.62777551851895e+01°)
7.47021898927345e-01	(1.68319161295165e+02dB,3.64877134177666e+01°)
7.52777563814180e-01	(1.68295461786884e+02dB,3.66981517816082e+01°)
7.58577575029198e-01	(1.68271525821770e+02dB,3.69090441709518e+01°)
7.64422274252614e-01	(1.68247355189199e+02dB,3.71203939843600e+01°)
7.70312005797229e-01	(1.68222946104612e+02dB,3.73321767795119e+01°)
7.76247116628706e-01	(1.68198299583222e+02dB,3.75443917925777e+01°)
7.82227956386017e-01	(1.68173414273404e+02dB,3.77570262449595e+01°)
7.88254877402036e-01	(1.68148289243762e+02dB,3.79700692265800e+01°)
7.94328234724296e-01	(1.68122922812869e+02dB,3.81835057131420e+01°)
8.00448386135907e-01	(1.68097315261002e+02dB,3.83973305754904e+01°)
8.06615692176629e-01	(1.68071465719458e+02dB,3.86115325924264e+01°)
8.12830516164115e-01	(1.68045372205911e+02dB,3.88260943919998e+01°)
8.19093224215313e-01	(1.68019034297756e+02dB,3.90410065359387e+01°)
8.25404185268034e-01	(1.67992450838945e+02dB,3.92562554569657e+01°)
8.31763771102687e-01	(1.67965622942423e+02dB,3.94718396249735e+01°)
8.38172356364178e-01	(1.67938547628909e+02dB,3.96877351833439e+01°)
8.44630318583985e-01	(1.67911225310614e+02dB,3.99039363843075e+01°)
8.51138038202393e-01	(1.67883655667543e+02dB,4.01204333600214e+01°)
8.57695898590911e-01	(1.67855836580414e+02dB,4.03372060005503e+01°)
8.64304286074853e-01	(1.67827769242102e+02dB,4.05542524055923e+01°)
8.70963589956098e-01	(1.67799452674155e+02dB,4.07715584149237e+01°)
8.77674202536023e-01	(1.67770884510874e+02dB,4.09891016121339e+01°)
8.84436519138617e-01	(1.67742066352271e+02dB,4.12068819536399e+01°)
8.91250938133763e-01	(1.67712995552699e+02dB,4.14248748284196e+01°)
8.98117860960712e-01	(1.67683674438161e+02dB,4.16430841827684e+01°)
9.05037692151730e-01	(1.67654099740044e+02dB,4.18614811710838e+01°)
9.12010839355928e-01	(1.67624273458845e+02dB,4.20800676025876e+01°)
9.19037713363278e-01	(1.67594192086182e+02dB,4.22988124361125e+01°)
9.26118728128812e-01	(1.67563858340536e+02dB,4.25177215000383e+01°)
9.33254300797010e-01	(1.67533270837103e+02dB,4.27367759663180e+01°)
9.40444851726371e-01	(1.67502428918993e+02dB,4.29559610574422e+01°)
