LTspice 24.0.12 for Windows
Circuit: * C:\Users\leone\Documents\repos\C2\simulaciones\checkpoint4\Support\Support.asc
Start Time: Thu Dec  5 20:30:18 2024
Warning: Multiple definitions of model "2scr375p" Type: BJT
Warning: Multiple definitions of model "bc857b" Type: BJT
Warning: Multiple definitions of model "bc847c" Type: BJT
Warning: Multiple definitions of model "bc847b" Type: BJT
solver = Normal
Maximum thread count: 16
tnom = 27
temp = 27
method = modified trap
Early termination of direct N-R iteration.
Direct Newton iteration failed to find .op point.  (Use ".option noopiter" to skip.)
Starting Gmin stepping
Gmin = 10
vernier = 0.5
vernier = 0.25
vernier = 0.125
Gmin = 6.68666
vernier = 0.0625
vernier = 0.03125
vernier = 0.015625
vernier = 0.0078125
vernier = 0.00390625
Gmin = 6.84217
vernier = 0.00195312
vernier = 0.000976562
vernier = 0.000488281
Gmin = 0
Gmin = 0
Gmin stepping succeeded in finding the operating point.

Semiconductor Device Operating Points:
                        --- Diodes ---
Name:    d:u1:1      d:u1:2      d:u1:3      d:u2:5      d:u2:1
Model:  u1:dmod1    u1:dmod1    u1:dmod2     u2:dlat     u2:dlat
Id:      9.52e-03   -4.63e-12   -2.52e-12   -7.50e-05    2.50e-04
Vd:      7.16e-01   -4.62e+00   -2.51e+00   -5.00e-01    5.01e-01
Req:     2.72e+00    1.00e+12    1.00e+12    1.00e+00    1.00e+00
CAP:     0.00e+00    0.00e+00    0.00e+00    0.00e+00    0.00e+00

Name:    d:u2:13     d:u2:14     d:u2:3      d:u2:7      d:u2:4
Model:   u2:dp1      u2:dp2       u2:xu       u2:xu       u2:xd
Id:      3.00e-03    1.77e-02   -7.57e-09   -2.43e-08   -3.65e-08
Vd:      3.61e+01    3.61e+01   -1.29e+01   -4.14e+01   -2.32e+01
Req:     1.00e-02    1.00e-02    5.88e-10    5.88e-10    1.57e-09
CAP:     0.00e+00    0.00e+00    0.00e+00    0.00e+00    0.00e+00

Name:    d:u2:8      d:u2:15     d:u2:18     d:u2:16     d:u2:19
Model:    u2:xd     u2:dvlu1    u2:dvlu1    u2:dvlu2    u2:dvlu2
Id:      8.26e-09    8.33e-10   -4.87e-11    4.08e-09   -4.87e-11
Vd:      5.26e+00    3.56e+00   -4.87e+00    3.56e+00   -4.87e+00
Req:     1.57e-09    6.67e-10    1.00e-11    2.00e-07    1.00e-11
CAP:     0.00e+00    0.00e+00    0.00e+00    0.00e+00    0.00e+00

Name:    d:u2:17     d:u2:20     d:u2:2      d:u2:6      d:u2:9
Model:   u2:dvld     u2:dvld    u2:dbiasc   u2:dbias    u2:dbias
Id:     -2.23e-10    1.34e-09   -2.50e-06    2.50e-06    2.50e-06
Vd:     -2.23e+01   -1.13e-01   -1.29e+01    1.69e+01    4.03e+00
Req:     1.00e-11    2.00e-07    1.00e+00    1.00e-03    1.00e-03
CAP:     0.00e+00    0.00e+00    0.00e+00    0.00e+00    0.00e+00

Name:    d:u2:10     d:u3:c      d:u3:e      d:u3:lp     d:u3:ln
Model:  u2:dlatch     u3:dx       u3:dx       u3:dx       u3:dx
Id:      5.00e-04   -3.31e-11   -2.77e-13   -4.00e-11   -4.00e-11
Vd:      3.61e+01   -3.31e+01   -2.77e-01   -4.00e+01   -4.00e+01
Req:     1.00e-03    1.00e+12    1.00e+12    1.00e+12    1.00e+12
CAP:     0.00e+00    0.00e+00    0.00e+00    0.00e+00    0.00e+00

Name:    d:u3:p      d:u4:c      d:u4:e      d:u4:lp     d:u4:ln
Model:    u3:dx       u4:dx       u4:dx       u4:dx       u4:dx
Id:     -3.61e-11   -3.00e-11   -3.43e-12   -4.00e-11   -4.00e-11
Vd:     -3.61e+01   -3.00e+01   -3.43e+00   -4.00e+01   -4.00e+01
Req:     1.00e+12    1.00e+12    1.00e+12    1.00e+12    1.00e+12
CAP:     0.00e+00    0.00e+00    0.00e+00    0.00e+00    0.00e+00

Name:    d:u4:p      d:u5:5      d:u5:1      d:u5:13     d:u5:14
Model:    u4:dx      u5:dlat     u5:dlat     u5:dp1      u5:dp2
Id:     -3.61e-11   -7.50e-05    2.50e-04    3.00e-03    1.77e-02
Vd:     -3.61e+01   -5.00e-01    5.01e-01    3.61e+01    3.61e+01
Req:     1.00e+12    1.00e+00    1.00e+00    1.00e-02    1.00e-02
CAP:     0.00e+00    0.00e+00    0.00e+00    0.00e+00    0.00e+00

Name:    d:u5:3      d:u5:7      d:u5:4      d:u5:8      d:u5:15
Model:    u5:xu       u5:xu       u5:xd       u5:xd     u5:dvlu1
Id:     -7.57e-09   -2.43e-08   -3.65e-08    8.26e-09    8.33e-10
Vd:     -1.29e+01   -4.14e+01   -2.32e+01    5.26e+00    3.56e+00
Req:     5.88e-10    5.88e-10    1.57e-09    1.57e-09    6.67e-10
CAP:     0.00e+00    0.00e+00    0.00e+00    0.00e+00    0.00e+00

Name:    d:u5:18     d:u5:16     d:u5:19     d:u5:17     d:u5:20
Model:  u5:dvlu1    u5:dvlu2    u5:dvlu2     u5:dvld     u5:dvld
Id:     -4.87e-11    4.08e-09   -4.87e-11   -2.23e-10    1.34e-09
Vd:     -4.87e+00    3.56e+00   -4.87e+00   -2.23e+01   -1.13e-01
Req:     1.00e-11    2.00e-07    1.00e-11    1.00e-11    2.00e-07
CAP:     0.00e+00    0.00e+00    0.00e+00    0.00e+00    0.00e+00

Name:    d:u5:2      d:u5:6      d:u5:9      d:u5:10     d:u6:1
Model:  u5:dbiasc   u5:dbias    u5:dbias    u5:dlatch   u6:dmod1
Id:     -2.50e-06    2.50e-06    2.50e-06    5.00e-04    9.52e-03
Vd:     -1.55e+00    5.58e+00    4.03e+00    3.61e+01    7.16e-01
Req:     1.00e+00    1.00e-03    1.00e-03    1.00e-03    2.72e+00
CAP:     0.00e+00    0.00e+00    0.00e+00    0.00e+00    0.00e+00

Name:    d:u6:2      d:u6:3
Model:  u6:dmod1    u6:dmod2
Id:     -4.63e-12   -2.52e-12
Vd:     -4.62e+00   -2.51e+00
Req:     1.00e+12    1.00e+12
CAP:     0.00e+00    0.00e+00

                        --- Bipolar Transistors ---
Name:       q1          q2        q:u3:1      q:u3:2      q:u4:1
Model:    bc847b      bc847b       u3:qx       u3:qx       u4:qx
Ib:       2.64e-06    5.51e-07   -2.14e-08   -2.19e-08   -2.11e-08
Ic:       9.24e-04    1.92e-04   -5.34e-06   -5.48e-06   -5.28e-06
Vbe:      5.97e-01    5.56e-01   -5.85e-01   -5.86e-01   -5.85e-01
Vbc:     -3.15e+01   -3.14e+01    8.34e-01    8.32e-01    3.99e+00
Vce:      3.21e+01    3.19e+01   -1.42e+00   -1.42e+00   -4.57e+00
BetaDC:   3.50e+02    3.48e+02    2.50e+02    2.50e+02    2.50e+02
Gm:       3.57e-02    7.41e-03    2.07e-04    2.12e-04    2.04e-04
Rpi:      9.81e+03    4.72e+04    1.21e+06    1.18e+06    1.22e+06
Rx:       1.39e+01    1.39e+01    0.00e+00    0.00e+00    0.00e+00
Ro:       1.57e+05    7.55e+05    3.26e+27    3.00e+27    2.73e+80
Cbe:      3.02e-11    2.00e-11    0.00e+00    0.00e+00    0.00e+00
Cbc:      1.09e-12    1.10e-12    0.00e+00    0.00e+00    0.00e+00
Cjs:      0.00e+00    0.00e+00    0.00e+00    0.00e+00    0.00e+00
BetaAC:   3.50e+02    3.49e+02    2.50e+02    2.50e+02    2.50e+02
Cbx:      0.00e+00    0.00e+00    0.00e+00    0.00e+00    0.00e+00
Ft:       1.81e+08    5.58e+07    0.00e+00    0.00e+00    0.00e+00

Name:     q:u4:2
Model:     u4:qx
Ib:      -2.16e-08
Ic:      -5.39e-06
Vbe:     -5.85e-01
Vbc:      3.98e+00
Vce:     -4.57e+00
BetaDC:   2.50e+02
Gm:       2.08e-04
Rpi:      1.20e+06
Rx:       0.00e+00
Ro:       2.55e+80
Cbe:      0.00e+00
Cbc:      0.00e+00
Cjs:      0.00e+00
BetaAC:   2.50e+02
Cbx:      0.00e+00
Ft:       0.00e+00

                        --- VDMOSFET Transistors ---
Name:        m:u2:1      m:u2:3      m:u2:2      m:u2:4      m:u5:1
Model:        u2:n        u2:n        u2:p        u2:p        u5:n
Id:          9.03e-03    1.76e-02   -9.03e-03   -1.76e-02    9.03e-03
Vgs:        -1.45e+01   -5.79e+00    4.29e+00   -8.05e-01   -1.45e+01
Vds:         1.81e+01    3.52e+01   -1.80e+01   -9.19e-01    1.81e+01
Vth:        -3.00e-01   -3.00e-01    4.00e-01    4.00e-01   -3.00e-01
Gm:          0.00e+00    0.00e+00    0.00e+00    2.30e-02    0.00e+00
Gds:         0.00e+00    0.00e+00    0.00e+00    7.17e-03    0.00e+00
Cgs:         0.00e+00    0.00e+00    0.00e+00    0.00e+00    0.00e+00
Cgd:         0.00e+00    0.00e+00    0.00e+00    0.00e+00    0.00e+00
Cbody:       0.00e+00    0.00e+00    0.00e+00    0.00e+00    0.00e+00

Name:        m:u5:3      m:u5:2      m:u5:4        m1          m2
Model:        u5:n        u5:p        u5:p       fds6680     fds6680
Id:          1.75e-02   -9.03e-03   -2.10e-02    3.70e-10    1.21e-09
Vgs:        -5.90e+00    4.29e+00   -9.13e-01    1.03e+00    1.80e+01
Vds:         3.51e+01   -1.81e+01   -1.03e+00    4.03e+00    7.05e-14
Vth:        -3.00e-01    4.00e-01    4.00e-01    2.65e+00    2.65e+00
Gm:          0.00e+00    0.00e+00    2.57e-02    6.89e-14    3.98e-13
Gds:         0.00e+00    0.00e+00    7.17e-03    1.66e-16    1.72e+03
Cgs:         0.00e+00    0.00e+00    0.00e+00    1.98e-09    1.98e-09
Cgd:         0.00e+00    0.00e+00    0.00e+00    3.65e-10    1.20e-09
Cbody:       0.00e+00    0.00e+00    0.00e+00    6.69e-10    1.50e-09


Total elapsed time: 0.275 seconds.

