LTspice 24.0.12 for Windows
Circuit: * C:\Users\leone\Documents\repos\C2\simulaciones\checkpoint4\Support\Support.asc
Start Time: Wed Nov 13 11:57:14 2024
Warning: Multiple definitions of model "2scr375p" Type: BJT
Warning: Multiple definitions of model "bc857b" Type: BJT
Warning: Multiple definitions of model "bc847c" Type: BJT
Warning: Multiple definitions of model "bc847b" Type: BJT
solver = Normal
Maximum thread count: 16
tnom = 27
temp = 27
method = modified trap
Early termination of direct N-R iteration.
Direct Newton iteration failed to find .op point.  (Use ".option noopiter" to skip.)
Starting Gmin stepping
Gmin = 10
vernier = 0.5
Gmin = 2.07126
vernier = 0.25
vernier = 0.125
vernier = 0.0625
vernier = 0.03125
Gmin = 2.14262
vernier = 0.015625
vernier = 0.0078125
vernier = 0.00390625
vernier = 0.00195312
Gmin = 2.14572
vernier = 0.000976562
vernier = 0.000488281
Gmin = 0
Gmin stepping failed

Starting source stepping with srcstepmethod=0
Source Step = 3.0303%
Source Step = 33.3333%
Source Step = 63.6364%
Source Step = 93.9394%
Source stepping succeeded in finding the operating point.

Semiconductor Device Operating Points:
                        --- Diodes ---
Name:    d:u1:1      d:u1:2      d:u1:3      d:u2:5      d:u2:1
Model:  u1:dmod1    u1:dmod1    u1:dmod2     u2:dlat     u2:dlat
Id:      1.71e-03   -6.20e-12   -4.13e-12    3.57e-05   -1.85e-04
Vd:      6.70e-01   -6.19e+00   -4.12e+00    3.57e-01   -5.01e-01
Req:     1.51e+01    1.00e+12    1.00e+12    1.00e-04    1.00e+00
CAP:     0.00e+00    0.00e+00    0.00e+00    0.00e+00    0.00e+00

Name:    d:u2:13     d:u2:14     d:u2:3      d:u2:7      d:u2:4
Model:   u2:dp1      u2:dp2       u2:xu       u2:xu       u2:xd
Id:      3.00e-03    1.77e-02   -1.23e-08    8.46e-10    1.41e-08
Vd:      1.18e+01    1.18e+01   -2.09e+01    1.44e+00    9.00e+00
Req:     1.00e-02    1.00e-02    5.88e-10    5.88e-10    1.00e-03
CAP:     0.00e+00    0.00e+00    0.00e+00    0.00e+00    0.00e+00

Name:    d:u2:8      d:u2:15     d:u2:18     d:u2:16     d:u2:19
Model:    u2:xd     u2:dvlu1    u2:dvlu1    u2:dvlu2    u2:dvlu2
Id:     -2.09e-08   -8.33e-11    8.18e-10   -8.33e-11    1.71e-09
Vd:     -1.33e+01   -8.33e+00    3.54e+00   -8.33e+00    3.54e+00
Req:     1.57e-09    1.00e-11    6.67e-10    1.00e-11    2.00e-07
CAP:     0.00e+00    0.00e+00    0.00e+00    0.00e+00    0.00e+00

Name:    d:u2:17     d:u2:20     d:u2:2      d:u2:6      d:u2:9
Model:   u2:dvld     u2:dvld    u2:dbiasc   u2:dbias    u2:dbias
Id:      2.28e-09   -1.28e-10    2.50e-06    2.50e-06    2.50e-06
Vd:     -1.02e-01   -1.28e+01    3.53e-03    5.57e+00    5.57e+00
Req:     2.00e-07    1.00e-11    1.00e+00    1.00e-03    1.00e-03
CAP:     0.00e+00    0.00e+00    0.00e+00    0.00e+00    0.00e+00

Name:    d:u2:10     d:u3:c      d:u3:e      d:u3:lp     d:u3:ln
Model:  u2:dlatch     u3:dx       u3:dx       u3:dx       u3:dx
Id:      5.00e-04   -8.54e-12   -6.13e-13   -4.00e-11   -4.00e-11
Vd:      1.18e+01   -8.54e+00   -6.12e-01   -4.00e+01   -4.00e+01
Req:     1.00e-03    1.00e+12    1.00e+12    1.00e+12    1.00e+12
CAP:     0.00e+00    0.00e+00    0.00e+00    0.00e+00    0.00e+00

Name:    d:u3:p      d:u4:c      d:u4:e      d:u4:lp     d:u4:ln
Model:    u3:dx       u4:dx       u4:dx       u4:dx       u4:dx
Id:     -1.19e-11   -4.18e-12   -4.98e-12   -4.00e-11   -4.00e-11
Vd:     -1.18e+01   -4.18e+00   -4.97e+00   -4.00e+01   -4.00e+01
Req:     1.00e+12    1.00e+12    1.00e+12    1.00e+12    1.00e+12
CAP:     0.00e+00    0.00e+00    0.00e+00    0.00e+00    0.00e+00

Name:    d:u4:p      d:u5:5      d:u5:1      d:u5:13     d:u5:14
Model:    u4:dx      u5:dlat     u5:dlat     u5:dp1      u5:dp2
Id:     -1.19e-11    7.50e-05   -2.50e-04    3.00e-03    1.77e-02
Vd:     -1.18e+01    5.00e-01   -5.01e-01    1.18e+01    1.18e+01
Req:     1.00e+12    1.00e+00    1.00e+00    1.00e-02    1.00e-02
CAP:     0.00e+00    0.00e+00    0.00e+00    0.00e+00    0.00e+00

Name:    d:u5:3      d:u5:7      d:u5:4      d:u5:8      d:u5:15
Model:    u5:xu       u5:xu       u5:xd       u5:xd     u5:dvlu1
Id:     -1.23e-08    3.22e-09    1.93e-08   -2.72e-08   -8.34e-11
Vd:     -2.09e+01    5.48e+00    9.00e+00   -1.73e+01   -8.33e+00
Req:     5.88e-10    5.88e-10    1.00e-03    1.57e-09    1.00e-11
CAP:     0.00e+00    0.00e+00    0.00e+00    0.00e+00    0.00e+00

Name:    d:u5:18     d:u5:16     d:u5:19     d:u5:17     d:u5:20
Model:  u5:dvlu1    u5:dvlu2    u5:dvlu2     u5:dvld     u5:dvld
Id:      8.24e-10   -8.34e-11    2.62e-09    2.28e-09   -1.67e-10
Vd:      3.55e+00   -8.33e+00    3.55e+00   -1.02e-01   -1.67e+01
Req:     6.67e-10    1.00e-11    2.00e-07    2.00e-07    1.00e-11
CAP:     0.00e+00    0.00e+00    0.00e+00    0.00e+00    0.00e+00

Name:    d:u5:2      d:u5:6      d:u5:9      d:u5:10
Model:  u5:dbiasc   u5:dbias    u5:dbias    u5:dlatch
Id:      2.50e-06    2.50e-06    2.50e-06    5.00e-04
Vd:      3.73e+00    1.84e+00    5.57e+00    1.18e+01
Req:     1.00e+00    1.00e-03    1.00e-03    1.00e-03
CAP:     0.00e+00    0.00e+00    0.00e+00    0.00e+00

                        --- Bipolar Transistors ---
Name:       q1        q:u3:1      q:u3:2      q:u4:1      q:u4:2
Model:    bc847b       u3:qx       u3:qx       u4:qx       u4:qx
Ib:       4.59e-06   -2.03e-08   -2.05e-08   -2.00e-08   -2.00e-08
Ic:       1.32e-03   -5.09e-06   -5.12e-06   -4.99e-06   -4.99e-06
Vbe:      6.11e-01   -5.84e-01   -5.84e-01   -5.83e-01   -5.83e-01
Vbc:     -5.66e+00    1.17e+00    1.17e+00    5.54e+00    5.54e+00
Vce:      6.28e+00   -1.76e+00   -1.76e+00   -6.12e+00   -6.12e+00
BetaDC:   2.87e+02    2.50e+02    2.50e+02    2.50e+02    2.50e+02
Gm:       5.09e-02    1.97e-04    1.98e-04    1.93e-04    1.93e-04
Rpi:      5.64e+03    1.27e+06    1.26e+06    1.29e+06    1.30e+06
Rx:       1.39e+01    0.00e+00    0.00e+00    0.00e+00    0.00e+00
Ro:       9.01e+04    1.53e+33    1.50e+33    0.00e+00    0.00e+00
Cbe:      3.56e-11    0.00e+00    0.00e+00    0.00e+00    0.00e+00
Cbc:      1.91e-12    0.00e+00    0.00e+00    0.00e+00    0.00e+00
Cjs:      0.00e+00    0.00e+00    0.00e+00    0.00e+00    0.00e+00
BetaAC:   2.87e+02    2.50e+02    2.50e+02    2.50e+02    2.50e+02
Cbx:      0.00e+00    0.00e+00    0.00e+00    0.00e+00    0.00e+00
Ft:       2.16e+08    0.00e+00    0.00e+00    0.00e+00    0.00e+00

                        --- VDMOSFET Transistors ---
Name:        m:u2:1      m:u2:3      m:u2:2      m:u2:4      m:u5:1
Model:        u2:n        u2:n        u2:p        u2:p        u5:n
Id:          5.71e-03    2.96e-03   -5.71e-03   -2.96e-03    5.71e-03
Vgs:        -8.76e+00   -2.38e+00   -3.27e-01    6.85e+00   -8.76e+00
Vds:         1.14e+01    5.92e+00   -4.29e-01   -5.92e+00    1.14e+01
Vth:        -3.00e-01   -3.00e-01    4.00e-01    4.00e-01   -3.00e-01
Gm:          0.00e+00    0.00e+00    1.07e-02    0.00e+00    0.00e+00
Gds:         0.00e+00    0.00e+00    7.44e-03    0.00e+00    0.00e+00
Cgs:         0.00e+00    0.00e+00    0.00e+00    0.00e+00    0.00e+00
Cgd:         0.00e+00    0.00e+00    0.00e+00    0.00e+00    0.00e+00
Cbody:       0.00e+00    0.00e+00    0.00e+00    0.00e+00    0.00e+00

Name:        m:u5:3      m:u5:2      m:u5:4        m1          m2
Model:        u5:n        u5:p        u5:p       fds6680     fds6680
Id:          2.96e-03   -5.71e-03   -2.96e-03    8.88e-10    3.22e-10
Vgs:        -2.37e+00   -3.27e-01    1.07e+01    1.42e+00    4.29e-01
Vds:         5.93e+00   -4.29e-01   -5.92e+00    1.07e+00    4.51e+00
Vth:        -3.00e-01    4.00e-01    4.00e-01    2.65e+00    2.65e+00
Gm:          0.00e+00    1.07e-02    0.00e+00    1.43e-10    4.56e-19
Gds:         0.00e+00    7.44e-03    0.00e+00    4.04e-13    1.08e-21
Cgs:         0.00e+00    0.00e+00    0.00e+00    1.98e-09    1.98e-09
Cgd:         0.00e+00    0.00e+00    0.00e+00    8.79e-10    3.17e-10
Cbody:       0.00e+00    0.00e+00    0.00e+00    1.04e-09    6.39e-10


Total elapsed time: 0.339 seconds.

