LTspice 24.0.12 for Windows
Circuit: * C:\Users\leone\Documents\repos\C2\simulaciones\checkpoint4\Support\Support.asc
Start Time: Tue Dec  3 21:07:36 2024
Warning: Multiple definitions of model "2scr375p" Type: BJT
Warning: Multiple definitions of model "bc857b" Type: BJT
Warning: Multiple definitions of model "bc847c" Type: BJT
Warning: Multiple definitions of model "bc847b" Type: BJT
solver = Normal
Maximum thread count: 16
tnom = 27
temp = 27
method = modified trap
Early termination of direct N-R iteration.
Direct Newton iteration failed to find .op point.  (Use ".option noopiter" to skip.)
Starting Gmin stepping
Gmin = 10
vernier = 0.5
vernier = 0.25
vernier = 0.125
Gmin = 6.68666
vernier = 0.0625
vernier = 0.03125
vernier = 0.015625
vernier = 0.0078125
vernier = 0.00390625
Gmin = 6.84217
vernier = 0.00195312
vernier = 0.000976562
vernier = 0.000488281
Gmin = 0
Gmin = 0
Gmin stepping succeeded in finding the operating point.

Semiconductor Device Operating Points:
                        --- Diodes ---
Name:    d:u1:1      d:u1:2      d:u1:3      d:u2:5      d:u2:1
Model:  u1:dmod1    u1:dmod1    u1:dmod2     u2:dlat     u2:dlat
Id:      9.06e-03   -6.19e-12   -4.08e-12   -7.50e-05    2.50e-04
Vd:      7.15e-01   -6.18e+00   -4.07e+00   -5.00e-01    5.01e-01
Req:     2.85e+00    1.00e+12    1.00e+12    1.00e+00    1.00e+00
CAP:     0.00e+00    0.00e+00    0.00e+00    0.00e+00    0.00e+00

Name:    d:u2:13     d:u2:14     d:u2:3      d:u2:7      d:u2:4
Model:   u2:dp1      u2:dp2       u2:xu       u2:xu       u2:xd
Id:      3.00e-03    1.77e-02   -7.57e-09   -2.43e-08   -3.65e-08
Vd:      3.61e+01    3.61e+01   -1.29e+01   -4.14e+01   -2.32e+01
Req:     1.00e-02    1.00e-02    5.88e-10    5.88e-10    1.57e-09
CAP:     0.00e+00    0.00e+00    0.00e+00    0.00e+00    0.00e+00

Name:    d:u2:8      d:u2:15     d:u2:18     d:u2:16     d:u2:19
Model:    u2:xd     u2:dvlu1    u2:dvlu1    u2:dvlu2    u2:dvlu2
Id:      8.26e-09    8.33e-10   -4.87e-11    4.08e-09   -4.87e-11
Vd:      5.26e+00    3.56e+00   -4.87e+00    3.56e+00   -4.87e+00
Req:     1.57e-09    6.67e-10    1.00e-11    2.00e-07    1.00e-11
CAP:     0.00e+00    0.00e+00    0.00e+00    0.00e+00    0.00e+00

Name:    d:u2:17     d:u2:20     d:u2:2      d:u2:6      d:u2:9
Model:   u2:dvld     u2:dvld    u2:dbiasc   u2:dbias    u2:dbias
Id:     -2.23e-10    1.34e-09   -2.50e-06    2.50e-06    2.50e-06
Vd:     -2.23e+01   -1.13e-01   -1.14e+01    1.69e+01    5.57e+00
Req:     1.00e-11    2.00e-07    1.00e+00    1.00e-03    1.00e-03
CAP:     0.00e+00    0.00e+00    0.00e+00    0.00e+00    0.00e+00

Name:    d:u2:10     d:u3:c      d:u3:e      d:u3:lp     d:u3:ln
Model:  u2:dlatch     u3:dx       u3:dx       u3:dx       u3:dx
Id:      5.00e-04   -3.28e-11   -6.14e-13   -4.00e-11   -4.00e-11
Vd:      3.61e+01   -3.28e+01   -6.13e-01   -4.00e+01   -4.00e+01
Req:     1.00e-03    1.00e+12    1.00e+12    1.00e+12    1.00e+12
CAP:     0.00e+00    0.00e+00    0.00e+00    0.00e+00    0.00e+00

Name:    d:u3:p      d:u4:c      d:u4:e      d:u4:lp     d:u4:ln
Model:    u3:dx       u4:dx       u4:dx       u4:dx       u4:dx
Id:     -3.61e-11   -2.84e-11   -4.98e-12   -4.00e-11   -4.00e-11
Vd:     -3.61e+01   -2.84e+01   -4.98e+00   -4.00e+01   -4.00e+01
Req:     1.00e+12    1.00e+12    1.00e+12    1.00e+12    1.00e+12
CAP:     0.00e+00    0.00e+00    0.00e+00    0.00e+00    0.00e+00

Name:    d:u4:p      d:u5:5      d:u5:1      d:u5:13     d:u5:14
Model:    u4:dx      u5:dlat     u5:dlat     u5:dp1      u5:dp2
Id:     -3.61e-11   -3.01e-05    1.50e-04    3.00e-03    1.77e-02
Vd:     -3.61e+01   -3.01e-01    5.01e-01    3.61e+01    3.61e+01
Req:     1.00e+12    1.00e-04    1.00e+00    1.00e-02    1.00e-02
CAP:     0.00e+00    0.00e+00    0.00e+00    0.00e+00    0.00e+00

Name:    d:u5:3      d:u5:7      d:u5:4      d:u5:8      d:u5:15
Model:    u5:xu       u5:xu       u5:xd       u5:xd     u5:dvlu1
Id:     -1.09e-08   -2.10e-08   -2.76e-08   -5.60e-10    8.25e-10
Vd:     -1.85e+01   -3.57e+01   -1.76e+01   -3.57e-01    3.55e+00
Req:     5.88e-10    5.88e-10    1.57e-09    1.57e-09    6.67e-10
CAP:     0.00e+00    0.00e+00    0.00e+00    0.00e+00    0.00e+00

Name:    d:u5:18     d:u5:16     d:u5:19     d:u5:17     d:u5:20
Model:  u5:dvlu1    u5:dvlu2    u5:dvlu2     u5:dvld     u5:dvld
Id:      3.30e-12    2.69e-09    3.30e-12   -1.69e-10   -3.43e-12
Vd:      3.30e-01    3.55e+00    3.30e-01   -1.69e+01   -3.43e-01
Req:     1.00e-11    2.00e-07    1.00e-11    1.00e-11    1.00e-11
CAP:     0.00e+00    0.00e+00    0.00e+00    0.00e+00    0.00e+00

Name:    d:u5:2      d:u5:6      d:u5:9      d:u5:10
Model:  u5:dbiasc   u5:dbias    u5:dbias    u5:dlatch
Id:     -2.50e-06    2.50e-06    2.50e-06    5.00e-04
Vd:     -2.90e-03    5.58e+00    5.57e+00    3.61e+01
Req:     1.00e+00    1.00e-03    1.00e-03    1.00e-03
CAP:     0.00e+00    0.00e+00    0.00e+00    0.00e+00

                        --- Bipolar Transistors ---
Name:       q1        q:u3:1      q:u3:2      q:u4:1      q:u4:2
Model:    bc847b       u3:qx       u3:qx       u4:qx       u4:qx
Ib:       3.79e-06   -2.14e-08   -2.19e-08   -2.10e-08   -2.14e-08
Ic:       1.31e-03   -5.34e-06   -5.47e-06   -5.25e-06   -5.36e-06
Vbe:      6.06e-01   -5.85e-01   -5.86e-01   -5.85e-01   -5.85e-01
Vbc:     -2.99e+01    1.17e+00    1.17e+00    5.53e+00    5.53e+00
Vce:      3.05e+01   -1.76e+00   -1.75e+00   -6.12e+00   -6.12e+00
BetaDC:   3.46e+02    2.50e+02    2.50e+02    2.50e+02    2.50e+02
Gm:       5.06e-02    2.06e-04    2.12e-04    2.03e-04    2.07e-04
Rpi:      6.84e+03    1.21e+06    1.18e+06    1.23e+06    1.21e+06
Rx:       1.39e+01    0.00e+00    0.00e+00    0.00e+00    0.00e+00
Ro:       1.09e+05    1.46e+33    1.34e+33    0.00e+00    0.00e+00
Cbe:      3.54e-11    0.00e+00    0.00e+00    0.00e+00    0.00e+00
Cbc:      1.11e-12    0.00e+00    0.00e+00    0.00e+00    0.00e+00
Cjs:      0.00e+00    0.00e+00    0.00e+00    0.00e+00    0.00e+00
BetaAC:   3.46e+02    2.50e+02    2.50e+02    2.50e+02    2.50e+02
Cbx:      0.00e+00    0.00e+00    0.00e+00    0.00e+00    0.00e+00
Ft:       2.20e+08    0.00e+00    0.00e+00    0.00e+00    0.00e+00

                        --- VDMOSFET Transistors ---
Name:        m:u2:1      m:u2:3      m:u2:2      m:u2:4      m:u5:1
Model:        u2:n        u2:n        u2:p        u2:p        u5:n
Id:          9.03e-03    1.76e-02   -9.03e-03   -1.76e-02    9.63e-03
Vgs:        -1.45e+01   -5.79e+00    4.29e+00   -8.05e-01   -1.33e+01
Vds:         1.81e+01    3.52e+01   -1.80e+01   -9.19e-01    1.93e+01
Vth:        -3.00e-01   -3.00e-01    4.00e-01    4.00e-01   -3.00e-01
Gm:          0.00e+00    0.00e+00    0.00e+00    2.30e-02    0.00e+00
Gds:         0.00e+00    0.00e+00    0.00e+00    7.17e-03    0.00e+00
Cgs:         0.00e+00    0.00e+00    0.00e+00    0.00e+00    0.00e+00
Cgd:         0.00e+00    0.00e+00    0.00e+00    0.00e+00    0.00e+00
Cbody:       0.00e+00    0.00e+00    0.00e+00    0.00e+00    0.00e+00

Name:        m:u5:3      m:u5:2      m:u5:4        m1          m2
Model:        u5:n        u5:p        u5:p       fds6680     fds6680
Id:          1.74e-02   -9.63e-03   -2.09e-02    3.14e-10    1.21e-09
Vgs:        -8.89e-01    8.94e-02   -8.76e-01    1.22e+00    1.80e+01
Vds:         3.49e+01   -1.68e+01   -1.22e+00    5.58e+00    9.59e-14
Vth:        -3.00e-01    4.00e-01    4.00e-01    2.65e+00    2.65e+00
Gm:          0.00e+00    7.76e-03    3.05e-02    3.49e-12    7.96e-13
Gds:         0.00e+00    0.00e+00    1.42e-03    7.85e-15    1.72e+03
Cgs:         0.00e+00    0.00e+00    0.00e+00    1.98e-09    1.98e-09
Cgd:         0.00e+00    0.00e+00    0.00e+00    3.08e-10    1.20e-09
Cbody:       0.00e+00    0.00e+00    0.00e+00    5.85e-10    1.50e-09


Total elapsed time: 0.251 seconds.

