Freq.	V(vf)
1.00000000000000e+00	(4.84141362950990e+01dB,1.79227311618704e+02°)
1.04712854805090e+00	(4.84140611690185e+01dB,1.79190833479624e+02°)
1.09647819614319e+00	(4.84139787963916e+01dB,1.79152639884519e+02°)
1.14815362149688e+00	(4.84138884782065e+01dB,1.79112649952182e+02°)
1.20226443461741e+00	(4.84137894484525e+01dB,1.79070779010722e+02°)
1.25892541179417e+00	(4.84136808672714e+01dB,1.79026938420899e+02°)
1.31825673855641e+00	(4.84135618133049e+01dB,1.78981035391507e+02°)
1.38038426460289e+00	(4.84134312769874e+01dB,1.78932972786262e+02°)
1.44543977074593e+00	(4.84132881514627e+01dB,1.78882648922209e+02°)
1.51356124843621e+00	(4.84131312226791e+01dB,1.78829957359155e+02°)
1.58489319246111e+00	(4.84129591602183e+01dB,1.78774786679552e+02°)
1.65958690743756e+00	(4.84127705053281e+01dB,1.78717020258897e+02°)
1.73780082874938e+00	(4.84125636587855e+01dB,1.78656536025964e+02°)
1.81970085860998e+00	(4.84123368672156e+01dB,1.78593206212654e+02°)
1.90546071796325e+00	(4.84120882090263e+01dB,1.78526897092918e+02°)
1.99526231496888e+00	(4.84118155769378e+01dB,1.78457468710838e+02°)
2.08929613085404e+00	(4.84115166616778e+01dB,1.78384774596758e+02°)
2.18776162394955e+00	(4.84111889310893e+01dB,1.78308661472036e+02°)
2.29086765276778e+00	(4.84108296100977e+01dB,1.78228968941126e+02°)
2.39883291901949e+00	(4.84104356566608e+01dB,1.78145529171479e+02°)
2.51188643150958e+00	(4.84100037362251e+01dB,1.78058166560500e+02°)
2.63026799189538e+00	(4.84095301944785e+01dB,1.77966697389239e+02°)
2.75422870333817e+00	(4.84090110254642e+01dB,1.77870929463179e+02°)
2.88403150312661e+00	(4.84084418391475e+01dB,1.77770661738966e+02°)
3.01995172040202e+00	(4.84078178247308e+01dB,1.77665683937696e+02°)
3.16227766016838e+00	(4.84071337094276e+01dB,1.77555776144735e+02°)
3.31131121482592e+00	(4.84063837158109e+01dB,1.77440708395202e+02°)
3.46736850452532e+00	(4.84055615128738e+01dB,1.77320240246360e+02°)
3.63078054770102e+00	(4.84046601642232e+01dB,1.77194120336118e+02°)
3.80189396320562e+00	(4.84036720701105e+01dB,1.77062085928801e+02°)
3.98107170553498e+00	(4.84025889046668e+01dB,1.76923862448169e+02°)
4.16869383470336e+00	(4.84014015476889e+01dB,1.76779162998382e+02°)
4.36515832240167e+00	(4.84001000097402e+01dB,1.76627687874027e+02°)
4.57088189614876e+00	(4.83986733498344e+01dB,1.76469124060469e+02°)
4.78630092322639e+00	(4.83971095867360e+01dB,1.76303144725317e+02°)
5.01187233627273e+00	(4.83953956014298e+01dB,1.76129408703428e+02°)
5.24807460249774e+00	(4.83935170309872e+01dB,1.75947559977250e+02°)
5.49540873857626e+00	(4.83914581530941e+01dB,1.75757227155056e+02°)
5.75439937337158e+00	(4.83892017593901e+01dB,1.75558022950651e+02°)
6.02559586074359e+00	(4.83867290194919e+01dB,1.75349543666918e+02°)
6.30957344480195e+00	(4.83840193312392e+01dB,1.75131368689202e+02°)
6.60693448007598e+00	(4.83810501587641e+01dB,1.74903059992401e+02°)
6.91830970918938e+00	(4.83777968572514e+01dB,1.74664161667646e+02°)
7.24435960074992e+00	(4.83742324812458e+01dB,1.74414199476672e+02°)
7.58577575029186e+00	(4.83703275801466e+01dB,1.74152680438981e+02°)
7.94328234724284e+00	(4.83660499724980e+01dB,1.73879092465433e+02°)
8.31763771102674e+00	(4.83613645060919e+01dB,1.73592904043723e+02°)
8.70963589956084e+00	(4.83562327969246e+01dB,1.73293563991408e+02°)
9.12010839355913e+00	(4.83506129499241e+01dB,1.72980501287443e+02°)
9.54992586021439e+00	(4.83444592563733e+01dB,1.72653125000671e+02°)
1.00000000000000e+01	(4.83377218714261e+01dB,1.72310824329575e+02°)
1.04712854805090e+01	(4.83303464679134e+01dB,1.71952968775198e+02°)
1.09647819614319e+01	(4.83222738674337e+01dB,1.71578908468019e+02°)
1.14815362149689e+01	(4.83134396481531e+01dB,1.71187974673340e+02°)
1.20226443461742e+01	(4.83037737268971e+01dB,1.70779480504777e+02°)
1.25892541179417e+01	(4.82931999207315e+01dB,1.70352721871017e+02°)
1.31825673855641e+01	(4.82816354830303e+01dB,1.69906978694377e+02°)
1.38038426460289e+01	(4.82689906194907e+01dB,1.69441516432807e+02°)
1.44543977074593e+01	(4.82551679827740e+01dB,1.68955587947524e+02°)
1.51356124843621e+01	(4.82400621539953e+01dB,1.68448435750936e+02°)
1.58489319246112e+01	(4.82235591034214e+01dB,1.67919294692694e+02°)
1.65958690743757e+01	(4.82055356492974e+01dB,1.67367395111931e+02°)
1.73780082874938e+01	(4.81858589092805e+01dB,1.66791966517200e+02°)
1.81970085860999e+01	(4.81643857572929e+01dB,1.66192241834825e+02°)
1.90546071796326e+01	(4.81409622945337e+01dB,1.65567462272192e+02°)
1.99526231496889e+01	(4.81154233393885e+01dB,1.64916882850376e+02°)
2.08929613085405e+01	(4.80875919580668e+01dB,1.64239778632157e+02°)
2.18776162394956e+01	(4.80572790423647e+01dB,1.63535451692861e+02°)
2.29086765276778e+01	(4.80242829558801e+01dB,1.62803238851942e+02°)
2.39883291901950e+01	(4.79883892661426e+01dB,1.62042520180583e+02°)
2.51188643150959e+01	(4.79493705790214e+01dB,1.61252728292894e+02°)
2.63026799189540e+01	(4.79069865058001e+01dB,1.60433358384343e+02°)
2.75422870333818e+01	(4.78609837855069e+01dB,1.59583978974193e+02°)
2.88403150312662e+01	(4.78110965800949e+01dB,1.58704243297707e+02°)
3.01995172040203e+01	(4.77570469785300e+01dB,1.57793901221331e+02°)
3.16227766016840e+01	(4.76985457354333e+01dB,1.56852811537403e+02°)
3.31131121482593e+01	(4.76352932586640e+01dB,1.55880954484561e+02°)
3.46736850452534e+01	(4.75669808796542e+01dB,1.54878444242155e+02°)
3.63078054770103e+01	(4.74932924234411e+01dB,1.53845541134140e+02°)
3.80189396320563e+01	(4.74139060826014e+01dB,1.52782663262207e+02°)
3.98107170553500e+01	(4.73284966126394e+01dB,1.51690397188949e+02°)
4.16869383470338e+01	(4.72367378341511e+01dB,1.50569507332773e+02°)
4.36515832240169e+01	(4.71383054426036e+01dB,1.49420943630038e+02°)
4.57088189614878e+01	(4.70328800844564e+01dB,1.48245847114786e+02°)
4.78630092322641e+01	(4.69201506706673e+01dB,1.47045552990584e+02°)
5.01187233627275e+01	(4.67998178746682e+01dB,1.45821590830870e+02°)
5.24807460249776e+01	(4.66715977495305e+01dB,1.44575681590928e+02°)
5.49540873857628e+01	(4.65352253785114e+01dB,1.43309731227036e+02°)
5.75439937337161e+01	(4.63904584929325e+01dB,1.42025820674272e+02°)
6.02559586074362e+01	(4.62370809377009e+01dB,1.40726192253510e+02°)
6.30957344480197e+01	(4.60749059004212e+01dB,1.39413232531007e+02°)
6.60693448007600e+01	(4.59037788125038e+01dB,1.38089451809275e+02°)
6.91830970918941e+01	(4.57235798078148e+01dB,1.36757460721603e+02°)
7.24435960074995e+01	(4.55342256868099e+01dB,1.35419944244456e+02°)
7.58577575029189e+01	(4.53356712918994e+01dB,1.34079633868227e+02°)
7.94328234724287e+01	(4.51279102647968e+01dB,1.32739278492094e+02°)
8.31763771102677e+01	(4.49109751493426e+01dB,1.31401614831944e+02°)
8.70963589956087e+01	(4.46849368386352e+01dB,1.30069338083414e+02°)
9.12010839355916e+01	(4.44499033864128e+01dB,1.28745073581569e+02°)
9.54992586021443e+01	(4.42060182266767e+01dB,1.27431350134266e+02°)
1.00000000000001e+02	(4.39534578542161e+01dB,1.26130575717117e+02°)
1.04712854805091e+02	(4.36924290563656e+01dB,1.24845015941857e+02°)
1.09647819614319e+02	(4.34231657745007e+01dB,1.23576775773440e+02°)
1.14815362149689e+02	(4.31459256954608e+01dB,1.22327784725175e+02°)
1.20226443461742e+02	(4.28609866736054e+01dB,1.21099785631299e+02°)
1.25892541179418e+02	(4.25686430735369e+01dB,1.19894327051916e+02°)
1.31825673855642e+02	(4.22692021308307e+01dB,1.18712759116255e+02°)
1.38038426460290e+02	(4.19629804036154e+01dB,1.17556232666013e+02°)
1.44543977074594e+02	(4.16503003911506e+01dB,1.16425701325750e+02°)
1.51356124843622e+02	(4.13314873694533e+01dB,1.15321926215557e+02°)
1.58489319246113e+02	(4.10068664908277e+01dB,1.14245482871350e+02°)
1.65958690743757e+02	(4.06767601757294e+01dB,1.13196769980869e+02°)
1.73780082874939e+02	(4.03414858123376e+01dB,1.12176019561983e+02°)
1.81970085861000e+02	(4.00013537731667e+01dB,1.11183308157839e+02°)
1.90546071796326e+02	(3.96566657426882e+01dB,1.10218568732532e+02°)
1.99526231496890e+02	(3.93077133470376e+01dB,1.09281602917648e+02°)
2.08929613085406e+02	(3.89547770672673e+01dB,1.08372093353781e+02°)
2.18776162394957e+02	(3.85981254159616e+01dB,1.07489615870642e+02°)
2.29086765276779e+02	(3.82380143522348e+01dB,1.06633651321191e+02°)
2.39883291901951e+02	(3.78746869092332e+01dB,1.05803596916650e+02°)
2.51188643150960e+02	(3.75083730079854e+01dB,1.04998776940993e+02°)
2.63026799189540e+02	(3.71392894318082e+01dB,1.04218452756134e+02°)
2.75422870333819e+02	(3.67676399354594e+01dB,1.03461832062502e+02°)
2.88403150312663e+02	(3.63936154666063e+01dB,1.02728077364852e+02°)
3.01995172040204e+02	(3.60173944775483e+01dB,1.02016313645104e+02°)
3.16227766016841e+02	(3.56391433074191e+01dB,1.01325635258962e+02°)
3.31131121482594e+02	(3.52590166182556e+01dB,1.00655112057450e+02°)
3.46736850452535e+02	(3.48771578689201e+01dB,1.00003794784140e+02°)
3.63078054770105e+02	(3.44936998138731e+01dB,9.93707197810080e+01°)
3.80189396320565e+02	(3.41087650154554e+01dB,9.87549130480098e+01°)
3.98107170553501e+02	(3.37224663605114e+01dB,9.81553936894061e+01°)
4.16869383470339e+02	(3.33349075727027e+01dB,9.75711768167893e+01°)
4.36515832240170e+02	(3.29461837145222e+01dB,9.70012759395097e+01°)
4.57088189614879e+02	(3.25563816736283e+01dB,9.64447048918171e+01°)
4.78630092322643e+02	(3.21655806290690e+01dB,9.59004793514944e+01°)
5.01187233627277e+02	(3.17738524946433e+01dB,9.53676179735566e+01°)
5.24807460249777e+02	(3.13812623364343e+01dB,9.48451431985016e+01°)
5.49540873857630e+02	(3.09878687632289e+01dB,9.43320817504285e+01°)
5.75439937337162e+02	(3.05937242878312e+01dB,9.38274648921401e+01°)
6.02559586074363e+02	(3.01988756593614e+01dB,9.33303284264486e+01°)
6.30957344480199e+02	(2.98033641653071e+01dB,9.28397125062359e+01°)
6.60693448007602e+02	(2.94072259033220e+01dB,9.23546612701852e+01°)
6.91830970918943e+02	(2.90104920229416e+01dB,9.18742223169497e+01°)
7.24435960074997e+02	(2.86131889370219e+01dB,9.13974460544383e+01°)
7.58577575029191e+02	(2.82153385031541e+01dB,9.09233849416685e+01°)
7.94328234724289e+02	(2.78169581754676e+01dB,9.04510926303076e+01°)
8.31763771102679e+02	(2.74180611267658e+01dB,8.99796230413486e+01°)
8.70963589956090e+02	(2.70186563415297e+01dB,8.95080293737017e+01°)
9.12010839355919e+02	(2.66187486797324e+01dB,8.90353630765747e+01°)
9.54992586021446e+02	(2.62183389117682e+01dB,8.85606727901601e+01°)
1.00000000000001e+03	(2.58174237246111e+01dB,8.80830032673208e+01°)
1.04712854805091e+03	(2.54159956990755e+01dB,8.76013943023443e+01°)
1.09647819614320e+03	(2.50140432583796e+01dB,8.71148796646415e+01°)
1.14815362149690e+03	(2.46115505877493e+01dB,8.66224860649874e+01°)
1.20226443461743e+03	(2.42084975250885e+01dB,8.61232321584417e+01°)
1.25892541179418e+03	(2.38048594224187e+01dB,8.56161276107621e+01°)
1.31825673855642e+03	(2.34006069780339e+01dB,8.51001722369383e+01°)
1.38038426460290e+03	(2.29957060392020e+01dB,8.45743552292001e+01°)
1.44543977074594e+03	(2.25901173752271e+01dB,8.40376545044732e+01°)
1.51356124843623e+03	(2.21837964209848e+01dB,8.34890361781486e+01°)
1.58489319246113e+03	(2.17766929909149e+01dB,8.29274542015712e+01°)
1.65958690743758e+03	(2.13687509638772e+01dB,8.23518501800648e+01°)
1.73780082874940e+03	(2.09599079393937e+01dB,8.17611534022454e+01°)
1.81970085861000e+03	(2.05500948661850e+01dB,8.11542811123372e+01°)
1.90546071796327e+03	(2.01392356443428e+01dB,8.05301390584573e+01°)
1.99526231496890e+03	(1.97272467029921e+01dB,7.98876223531189e+01°)
2.08929613085406e+03	(1.93140365559791e+01dB,7.92256166846930e+01°)
2.18776162394958e+03	(1.88995053388618e+01dB,7.85429999209779e+01°)
2.29086765276780e+03	(1.84835443314379e+01dB,7.78386441498031e+01°)
2.39883291901952e+03	(1.80660354711285e+01dB,7.71114181999829e+01°)
2.51188643150961e+03	(1.76468508637441e+01dB,7.63601906920252e+01°)
2.63026799189541e+03	(1.72258522996522e+01dB,7.55838336621730e+01°)
2.75422870333820e+03	(1.68028907849005e+01dB,7.47812268084181e+01°)
2.88403150312664e+03	(1.63778060986616e+01dB,7.39512623981856e+01°)
3.01995172040205e+03	(1.59504263902409e+01dB,7.30928508810828e+01°)
3.16227766016842e+03	(1.55205678310031e+01dB,7.22049272327273e+01°)
3.31131121482595e+03	(1.50880343386105e+01dB,7.12864580566491e+01°)
3.46736850452536e+03	(1.46526173931851e+01dB,7.03364494507656e+01°)
3.63078054770106e+03	(1.42140959670642e+01dB,6.93539556328493e+01°)
3.80189396320566e+03	(1.37722365916864e+01dB,6.83380882971854e+01°)
3.98107170553502e+03	(1.33267935868317e+01dB,6.72880266491365e+01°)
4.16869383470341e+03	(1.28775094784817e+01dB,6.62030280402293e+01°)
4.36515832240172e+03	(1.24241156321325e+01dB,6.50824390847952e+01°)
4.57088189614881e+03	(1.19663331279662e+01dB,6.39257071107330e+01°)
4.78630092322645e+03	(1.15038739028998e+01dB,6.27323917518814e+01°)
5.01187233627279e+03	(1.10364421817933e+01dB,6.15021764476398e+01°)
5.24807460249780e+03	(1.05637362159306e+01dB,6.02348795749374e+01°)
5.49540873857632e+03	(1.00854503410415e+01dB,5.89304648963007e+01°)
5.75439937337165e+03	(9.60127735965087e+00dB,5.75890509699141e+01°)
6.02559586074366e+03	(9.11091124323963e+00dB,5.62109191412183e+01°)
6.30957344480202e+03	(8.61405013885807e+00dB,5.47965197159382e+01°)
6.60693448007605e+03	(8.11039965266201e+00dB,5.33464759111593e+01°)
6.91830970918946e+03	(7.59967636969122e+00dB,5.18615851916223e+01°)
7.24435960075000e+03	(7.08161155576501e+00dB,5.03428176350027e+01°)
7.58577575029194e+03	(6.55595497425675e+00dB,4.87913110209929e+01°)
7.94328234724293e+03	(6.02247873864474e+00dB,4.72083624156290e+01°)
8.31763771102683e+03	(5.48098111195865e+00dB,4.55954161208636e+01°)
8.70963589956093e+03	(4.93129015741671e+00dB,4.39540479712883e+01°)
9.12010839355923e+03	(4.37326714160822e+00dB,4.22859460915094e+01°)
9.54992586021450e+03	(3.80680959285346e+00dB,4.05928883612862e+01°)
1.00000000000001e+04	(3.23185392356203e+00dB,3.88767169703061e+01°)
1.04712854805091e+04	(2.64837753615729e+00dB,3.71393105729030e+01°)
1.09647819614320e+04	(2.05640034728848e+00dB,3.53825546616082e+01°)
1.14815362149690e+04	(1.45598568395306e+00dB,3.36083108644669e+01°)
1.20226443461743e+04	(8.47240526359817e-01dB,3.18183859262750e+01°)
1.25892541179419e+04	(2.30315095235634e-01dB,3.00145011568398e+01°)
1.31825673855643e+04	(-3.94598196330580e-01dB,2.81982631140283e+01°)
1.38038426460291e+04	(-1.02726638516439e+00dB,2.63711362451314e+01°)
1.44543977074595e+04	(-1.66741813486918e+00dB,2.45344181307966e+01°)
1.51356124843623e+04	(-2.31474637305907e+00dB,2.26892178794670e+01°)
1.58489319246114e+04	(-2.96891130470386e+00dB,2.08364381023493e+01°)
1.65958690743759e+04	(-3.62954371180476e+00dB,1.89767607777168e+01°)
1.73780082874940e+04	(-4.29624844902399e+00dB,1.71106371907156e+01°)
1.81970085861001e+04	(-4.96860804831139e+00dB,1.52382820201940e+01°)
1.90546071796328e+04	(-5.64618635271531e+00dB,1.33596715434731e+01°)
1.99526231496891e+04	(-6.32853210949732e+00dB,1.14745458463913e+01°)
2.08929613085407e+04	(-7.01518246428575e+00dB,9.58241486081745e+00°)
2.18776162394959e+04	(-7.70566631064541e+00dB,7.68256800797813e+00°)
2.29086765276781e+04	(-8.39950746206149e+00dB,5.77408719794684e+00°)
2.39883291901953e+04	(-9.09622762528455e+00dB,3.85586292242225e+00°)
2.51188643150962e+04	(-9.79534916483182e+00dB,1.92661317636573e+00°)
2.63026799189542e+04	(-1.04963976576658e+01dB,-1.50950534459096e-02°)
2.75422870333821e+04	(-1.11989042446471e+01dB,-1.97082198904719e+00°)
2.88403150312665e+04	(-1.19024077914112e+01dB,-3.94222920644247e+00°)
3.01995172040206e+04	(-1.26064568756920e+01dB,-5.93105198439331e+00°)
3.16227766016843e+04	(-1.33106116214855e+01dB,-7.93907013075673e+00°)
3.31131121482596e+04	(-1.40144454028119e+01dB,-9.96807758334268e+00°)
3.46736850452537e+04	(-1.47175464416254e+01dB,-1.20198511175651e+01°)
3.63078054770107e+04	(-1.54195193259590e+01dB,-1.40961185349203e+01°)
3.80189396320567e+04	(-1.61199864756064e+01dB,-1.61985267552514e+01°)
3.98107170553504e+04	(-1.68185895837780e+01dB,-1.83286102842302e+01°)
4.16869383470342e+04	(-1.75149910638110e+01dB,-2.04877605732755e+01°)
4.36515832240173e+04	(-1.82088755300127e+01dB,-2.26771968238824e+01°)
4.57088189614883e+04	(-1.88999513404140e+01dB,-2.48979388093382e+01°)
4.78630092322646e+04	(-1.95879522262915e+01dB,-2.71507822861218e+01°)
5.01187233627281e+04	(-2.02726390279500e+01dB,-2.94362775438391e+01°)
5.24807460249781e+04	(-2.09538015483309e+01dB,-3.17547115923031e+01°)
5.49540873857634e+04	(-2.16312605251317e+01dB,-3.41060944071431e+01°)
5.75439937337167e+04	(-2.23048697084278e+01dB,-3.64901495545714e+01°)
6.02559586074368e+04	(-2.29745180148421e+01dB,-3.89063093917825e+01°)
6.30957344480204e+04	(-2.36401317118392e+01dB,-4.13537149014249e+01°)
6.60693448007607e+04	(-2.43016765680509e+01dB,-4.38312200695319e+01°)
6.91830970918948e+04	(-2.49591598888798e+01dB,-4.63374005677958e+01°)
7.24435960075003e+04	(-2.56126323427635e+01dB,-4.88705663576699e+01°)
7.58577575029197e+04	(-2.62621894736299e+01dB,-5.14287777077285e+01°)
7.94328234724295e+04	(-2.69079727905367e+01dB,-5.40098640115597e+01°)
8.31763771102686e+04	(-2.75501703272481e+01dB,-5.66114447196777e+01°)
8.70963589956096e+04	(-2.81890165725948e+01dB,-5.92309516614198e+01°)
9.12010839355926e+04	(-2.88247916871886e+01dB,-6.18656520320223e+01°)
9.54992586021453e+04	(-2.94578199423305e+01dB,-6.45126713601251e+01°)
1.00000000000002e+05	(-3.00884673420168e+01dB,-6.71690158471530e+01°)
1.04712854805092e+05	(-3.07171384172039e+01dB,-6.98315935799484e+01°)
1.09647819614320e+05	(-3.13442722115360e+01dB,-7.24972342517981e+01°)
1.14815362149690e+05	(-3.19703375078048e+01dB,-7.51627071788475e+01°)
1.20226443461743e+05	(-3.25958273732219e+01dB,-7.78247375539525e+01°)
1.25892541179419e+05	(-3.32212531275744e+01dB,-8.04800210298123e+01°)
1.31825673855643e+05	(-3.38471378606440e+01dB,-8.31252368551945e+01°)
1.38038426460291e+05	(-3.44740096429367e+01dB,-8.57570598916674e+01°)
1.44543977074595e+05	(-3.51023945862524e+01dB,-8.83721719076132e+01°)
1.51356124843624e+05	(-3.57328099175788e+01dB,-9.09672725737905e+01°)
1.58489319246114e+05	(-3.63657572309793e+01dB,-9.35390905716627e+01°)
1.65958690743759e+05	(-3.70017160776037e+01dB,-9.60843951718509e+01°)
1.73780082874941e+05	(-3.76411380438172e+01dB,-9.86000085522175e+01°)
1.81970085861002e+05	(-3.82844414520108e+01dB,-1.01082819010987e+02°)
1.90546071796328e+05	(-3.89320067985096e+01dB,-1.03529795100374e+02°)
1.99526231496892e+05	(-3.95841730188042e+01dB,-1.05938000572537e+02°)
2.08929613085408e+05	(-4.02412346430916e+01dB,-1.08304609902997e+02°)
2.18776162394959e+05	(-4.09034398759511e+01dB,-1.10626924048320e+02°)
2.29086765276782e+05	(-4.15709896041931e+01dB,-1.12902386013420e+02°)
2.39883291901954e+05	(-4.22440373079066e+01dB,-1.15128595754118e+02°)
2.51188643150963e+05	(-4.29226898228213e+01dB,-1.17303323927010e+02°)
2.63026799189543e+05	(-4.36070088785429e+01dB,-1.19424524018868e+02°)
2.75422870333822e+05	(-4.42970133180420e+01dB,-1.21490342439753e+02°)
2.88403150312666e+05	(-4.49926818896494e+01dB,-1.23499126241204e+02°)
3.01995172040208e+05	(-4.56939564941474e+01dB,-1.25449428215922e+02°)
3.16227766016844e+05	(-4.64007457662976e+01dB,-1.27340009240600e+02°)
3.31131121482598e+05	(-4.71129288720062e+01dB,-1.29169837830166e+02°)
3.46736850452539e+05	(-4.78303594086474e+01dB,-1.30938086973362e+02°)
3.63078054770109e+05	(-4.85528693060353e+01dB,-1.32644128409440e+02°)
3.80189396320569e+05	(-4.92802726381750e+01dB,-1.34287524580420e+02°)
3.98107170553505e+05	(-5.00123692702846e+01dB,-1.35868018549526e+02°)
4.16869383470344e+05	(-5.07489482806909e+01dB,-1.37385522214101e+02°)
4.36515832240175e+05	(-5.14897911122535e+01dB,-1.38840103160250e+02°)
4.57088189614884e+05	(-5.22346744222620e+01dB,-1.40231970509130e+02°)
4.78630092322648e+05	(-5.29833726127702e+01dB,-1.41561460093142e+02°)
5.01187233627283e+05	(-5.37356600347171e+01dB,-1.42829019277754e+02°)
5.24807460249783e+05	(-5.44913128687594e+01dB,-1.44035191713473e+02°)
5.49540873857636e+05	(-5.52501106934282e+01dB,-1.45180602266722e+02°)
5.75439937337169e+05	(-5.60118377570998e+01dB,-1.46265942339292e+02°)
6.02559586074370e+05	(-5.67762839744535e+01dB,-1.47291955747059e+02°)
6.30957344480207e+05	(-5.75432456707769e+01dB,-1.48259425290599e+02°)
